Circuit: * D:\Electronica\Electronica 2\TP1\TPs-Electronica2\Fuente_regulada_V2\Simulación\Fuente regulada.asc

Direct Newton iteration for .op point succeeded.
Semiconductor Device Operating Points:
                        --- Diodes ---
Name:    d:u2:1      d:u1:p      d:u1:ln     d:u1:lp     d:u1:e
Model:  u2:dmodel     u1:dx       u1:dx       u1:dx       u1:dx
Id:     -1.36e-11   -3.00e-11   -5.07e-11    1.86e-04   -1.65e-11
Vd:     -1.26e+01   -3.00e+01   -5.07e+01    6.77e-01   -1.65e+01
Req:     1.00e+12    1.00e+12    1.00e+12    1.39e+02    1.00e+12
CAP:     0.00e+00    0.00e+00    0.00e+00    0.00e+00    0.00e+00

Name:    d:u1:c        d3
Model:    u1:dx       z5p6
Id:     -9.07e-12   -8.44e-03
Vd:     -9.07e+00   -5.77e+00
Req:     1.00e+12    9.19e+00
CAP:     0.00e+00    7.11e-11

                        --- Bipolar Transistors ---
Name:     q:u2:2      q:u2:1        q3
Model:  u2:q1model   u2:qmodel    bc547c
Ib:       2.42e-02    1.93e-04    3.24e-03
Ic:       1.14e+00    2.47e-02   -2.87e-02
Vbe:      7.96e-01    5.86e-01   -1.79e+00
Vbc:     -1.19e+01   -1.13e+01    7.50e-01
Vce:      1.26e+01    1.19e+01   -2.54e+00
BetaDC:   4.72e+01    1.29e+02   -8.84e+00
Gm:       2.33e+01    7.98e-01   -8.15e-01
Rpi:      1.18e+00    1.84e+02    1.00e+12
Rx:       2.82e+00    4.87e+00    1.00e+00
Ro:       3.65e+01    1.66e+03    1.23e+00
Cbe:      3.39e-08    1.35e-09    7.56e-12
Cbc:        NaN       2.19e-11    2.03e-11
Cjs:      0.00e+00    0.00e+00    0.00e+00
BetaAC:   2.74e+01    1.47e+02   -8.15e+11
Cbx:      0.00e+00    2.44e-12    1.25e-11
Ft:       1.09e+08    9.26e+07    3.21e+09

                        --- JFET Transistors ---
Name:    j:u1:2      j:u1:1
Model:    u1:jx       u1:jx
Id:     -3.00e-11   -1.97e-04
Vgs:     2.20e+00    1.46e-01
Vds:    -1.28e+01   -1.21e+01
Gm:      0.00e+00    4.62e-04
Gds:     0.00e+00    0.00e+00
Cgs:     0.00e+00    0.00e+00
Cgd:     0.00e+00    0.00e+00



Date: Sat Apr 23 00:59:10 2022
Total elapsed time: 2.685 seconds.

tnom = 27
temp = 27
method = trap
totiter = 1609
traniter = 0
tranpoints = 0
accept = 0
rejected = 0
matrix size = 43
fillins = 84
solver = Normal
Matrix Compiler1: 6.15 KB object code size
Matrix Compiler2: 5.27 KB object code size  0.4/0.7/[0.2]

